
**** 10/03/19 13:13:03 ***** PSpice 16.6.0 (October 2012) ***** ID# 0 ********

 ** Profile: "SCHEMATIC1-2-4-2-funcionamiento-carga-no-ideal"  [ C:\Users\emile\Desktop\practica 3 garabito\2,4,2-funcionamiento-con-


 ****     CIRCUIT DESCRIPTION


******************************************************************************




** Creating circuit file "2-4-2-funcionamiento-carga-no-ideal.cir" 
** WARNING: THIS AUTOMATICALLY GENERATED FILE MAY BE OVERWRITTEN BY SUBSEQUENT SIMULATIONS

*Libraries: 
* Profile Libraries :
* Local Libraries :
* From [PSPICE NETLIST] section of C:\SPB_Data\cdssetup\OrCAD_PSpice/16.6.0/PSpice.ini file:
.lib "nom.lib" 

*Analysis directives: 
.TRAN  0 50ms 0 10ms 
.OPTIONS ADVCONV
.PROBE64 V(alias(*)) I(alias(*)) W(alias(*)) D(alias(*)) NOISE(alias(*)) 
.INC "..\SCHEMATIC1.net" 



**** INCLUDING SCHEMATIC1.net ****
* source 2,4,2-FUNCIONAMIENTO-CON-CARGAS-NO-IDEALES
V_V3         N01549 0  
+PULSE 0 1 10 10ns 10ns 100us 20ms
V_V4         N01585 0  
+PULSE 0 1 10 10ns 10ns 100us 20ms
X_X1         N01581 N01483 N01463 2N1595
V_V5         N01669 0  
+PULSE 0 1 0 10ns 10ms 100us 20ms
X_X3         N01601 N01549 N01463 2N1595
X_X2         N01601 N01549 N01463 2N1595
V_V1         N01573 N01601  AC 0
+SIN 45 220Vrms 50hz 0 0 0
X_X4         0 N01585 N01581 2N1595
L_L1         N01573 N01581  1nH  
X_X5         0 N01669 N01601 2N1595
V_V2         N01483 0  
+PULSE 0 1 0 10ns 10ns 100us 20ms
R_R1         N02400 N01463  1  
L_L2         N02400 N021481  6mh  
V_V6         N021481 0 DC 120  

**** RESUMING 2-4-2-funcionamiento-carga-no-ideal.cir ****
.END

**** 10/03/19 13:13:03 ***** PSpice 16.6.0 (October 2012) ***** ID# 0 ********

 ** Profile: "SCHEMATIC1-2-4-2-funcionamiento-carga-no-ideal"  [ C:\Users\emile\Desktop\practica 3 garabito\2,4,2-funcionamiento-con-


 ****     Diode MODEL PARAMETERS


******************************************************************************




               X_X1.X1.Dgk     X_X1.X1.Dseries X_X1.X1.Delay   X_X1.X1.Dkarev  
          IS  100.000000E-18   10.000000E-15    1.000000E-12  100.000000E-12 
          RS    5                                .01             .01         
         CJO   50.000000E-12                    5.000000E-12    5.000000E-12 


               X_X1.X1.Dakfwd  X_X1.X1.Dbreak  X_X3.X1.Dgk     X_X3.X1.Dseries 
          IS   40.000000E-12   10.000000E-15  100.000000E-18   10.000000E-15 
          BV                   55                                            
         IBV                  100.000000E-09                                 
          RS                     .5             5                            
         CJO    5.000000E-12    5.000000E-12   50.000000E-12                 


               X_X3.X1.Delay   X_X3.X1.Dkarev  X_X3.X1.Dakfwd  X_X3.X1.Dbreak  
          IS    1.000000E-12  100.000000E-12   40.000000E-12   10.000000E-15 
          BV                                                   55            
         IBV                                                  100.000000E-09 
          RS     .01             .01                             .5          
         CJO    5.000000E-12    5.000000E-12    5.000000E-12    5.000000E-12 


               X_X2.X1.Dgk     X_X2.X1.Dseries X_X2.X1.Delay   X_X2.X1.Dkarev  
          IS  100.000000E-18   10.000000E-15    1.000000E-12  100.000000E-12 
          RS    5                                .01             .01         
         CJO   50.000000E-12                    5.000000E-12    5.000000E-12 


               X_X2.X1.Dakfwd  X_X2.X1.Dbreak  X_X4.X1.Dgk     X_X4.X1.Dseries 
          IS   40.000000E-12   10.000000E-15  100.000000E-18   10.000000E-15 
          BV                   55                                            
         IBV                  100.000000E-09                                 
          RS                     .5             5                            
         CJO    5.000000E-12    5.000000E-12   50.000000E-12                 


               X_X4.X1.Delay   X_X4.X1.Dkarev  X_X4.X1.Dakfwd  X_X4.X1.Dbreak  
          IS    1.000000E-12  100.000000E-12   40.000000E-12   10.000000E-15 
          BV                                                   55            
         IBV                                                  100.000000E-09 
          RS     .01             .01                             .5          
         CJO    5.000000E-12    5.000000E-12    5.000000E-12    5.000000E-12 


               X_X5.X1.Dgk     X_X5.X1.Dseries X_X5.X1.Delay   X_X5.X1.Dkarev  
          IS  100.000000E-18   10.000000E-15    1.000000E-12  100.000000E-12 
          RS    5                                .01             .01         
         CJO   50.000000E-12                    5.000000E-12    5.000000E-12 


               X_X5.X1.Dakfwd  X_X5.X1.Dbreak  
          IS   40.000000E-12   10.000000E-15 
          BV                   55            
         IBV                  100.000000E-09 
          RS                     .5          
         CJO    5.000000E-12    5.000000E-12 


**** 10/03/19 13:13:03 ***** PSpice 16.6.0 (October 2012) ***** ID# 0 ********

 ** Profile: "SCHEMATIC1-2-4-2-funcionamiento-carga-no-ideal"  [ C:\Users\emile\Desktop\practica 3 garabito\2,4,2-funcionamiento-con-


 ****     Voltage Controlled Switch MODEL PARAMETERS


******************************************************************************




               X_X1.X1.Vswitch X_X3.X1.Vswitch X_X2.X1.Vswitch X_X4.X1.Vswitch 
         RON     .4              .4              .4              .4          
        ROFF  454.545500E+03  454.545500E+03  454.545500E+03  454.545500E+03 
         VON    5               5               5               5            
        VOFF    1.5             1.5             1.5             1.5          


               X_X5.X1.Vswitch 
         RON     .4          
        ROFF  454.545500E+03 
         VON    5            
        VOFF    1.5          


**** 10/03/19 13:13:03 ***** PSpice 16.6.0 (October 2012) ***** ID# 0 ********

 ** Profile: "SCHEMATIC1-2-4-2-funcionamiento-carga-no-ideal"  [ C:\Users\emile\Desktop\practica 3 garabito\2,4,2-funcionamiento-con-


 ****     INITIAL TRANSIENT SOLUTION       TEMPERATURE =   27.000 DEG C


******************************************************************************



 NODE   VOLTAGE     NODE   VOLTAGE     NODE   VOLTAGE     NODE   VOLTAGE


(N01463)   89.7710 (N01483)    0.0000 (N01549)    0.0000 (N01573)   71.0160     

(N01581)   71.0160 (N01585)    0.0000 (N01601)   26.0160 (N01669)    0.0000     

(N02400)  120.0000 (N021481)  120.0000                                          

(X_X1.X1.Itot)    0.0000              (X_X1.X1.prod)    0.0000                  

(X_X2.X1.Itot)    0.0000              (X_X2.X1.prod)    0.0000                  

(X_X3.X1.Itot)    0.0000              (X_X3.X1.prod)    0.0000                  

(X_X4.X1.Itot)    0.0000              (X_X4.X1.prod)    0.0000                  

(X_X5.X1.Itot)    0.0000              (X_X5.X1.prod)    0.0000                  

(X_X1.X1.dlay1) 20.88E-24             (X_X1.X1.dlay2)-91.78E-24                 

(X_X1.X1.dvdt0)    0.0000             (X_X1.X1.dvdt1)   89.7710                 

(X_X1.X1.dvdt2)   89.7710             (X_X1.X1.gate1)    6.4122                 

(X_X1.X1.gate2)   89.7710             (X_X1.X1.gate4)    0.0000                 

(X_X2.X1.dlay1) 20.86E-24             (X_X2.X1.dlay2)-91.69E-24                 

(X_X2.X1.dvdt0)    0.0000             (X_X2.X1.dvdt1)   89.7710                 

(X_X2.X1.dvdt2)   89.7710             (X_X2.X1.gate1)    6.4122                 

(X_X2.X1.gate2)   89.7710             (X_X2.X1.gate4)    0.0000                 

(X_X3.X1.dlay1) 20.79E-24             (X_X3.X1.dlay2)-91.37E-24                 

(X_X3.X1.dvdt0)    0.0000             (X_X3.X1.dvdt1)   89.7710                 

(X_X3.X1.dvdt2)   89.7710             (X_X3.X1.gate1)    6.4122                 

(X_X3.X1.gate2)   89.7710             (X_X3.X1.gate4)    0.0000                 

(X_X4.X1.dlay1) 105.4E-27             (X_X4.X1.dlay2)-464.4E-27                 

(X_X4.X1.dvdt0)    0.0000             (X_X4.X1.dvdt1)   71.0160                 

(X_X4.X1.dvdt2)   71.0160             (X_X4.X1.gate1)    5.0726                 

(X_X4.X1.gate2)   71.0160             (X_X4.X1.gate4)    0.0000                 

(X_X5.X1.dlay1) 2.276E-30             (X_X5.X1.dlay2)-5.470E-30                 

(X_X5.X1.dvdt0)    0.0000             (X_X5.X1.dvdt1)   26.0160                 

(X_X5.X1.dvdt2)   26.0160             (X_X5.X1.gate1)    1.8583                 

(X_X5.X1.gate2)   26.0160             (X_X5.X1.gate4)    0.0000                 

(X_X1.X1.anode0)   89.4370            (X_X1.X1.anode2)   89.7710                

(X_X1.X1.break1)   89.5760            (X_X1.X1.contot)    0.0000                

(X_X2.X1.anode0)   89.4050            (X_X2.X1.anode2)   89.7710                

(X_X2.X1.break1)   88.8680            (X_X2.X1.contot)    0.0000                

(X_X3.X1.anode0)   89.4050            (X_X3.X1.anode2)   89.7710                

(X_X3.X1.break1)   88.8680            (X_X3.X1.contot)    0.0000                

(X_X4.X1.anode0)   70.6480            (X_X4.X1.anode2)   71.0160                

(X_X4.X1.break1)   70.0950            (X_X4.X1.contot)    0.0000                

(X_X5.X1.anode0)   25.6740            (X_X5.X1.anode2)   26.0160                

(X_X5.X1.break1)   25.8130            (X_X5.X1.contot)    0.0000                

(X_X1.X1.condvdt)    0.0000           (X_X1.X1.congate)    0.0000               

(X_X1.X1.conmain)    0.0000           (X_X1.X1.control) 4.524E-18               

(X_X2.X1.condvdt)    0.0000           (X_X2.X1.congate)    0.0000               

(X_X2.X1.conmain)    0.0000           (X_X2.X1.control) 4.524E-18               

(X_X3.X1.condvdt)    0.0000           (X_X3.X1.congate)    0.0000               

(X_X3.X1.conmain)    0.0000           (X_X3.X1.control) 4.516E-18               

(X_X4.X1.condvdt)    0.0000           (X_X4.X1.congate)    0.0000               

(X_X4.X1.conmain)    0.0000           (X_X4.X1.control) 321.4E-21               

(X_X5.X1.condvdt)    0.0000           (X_X5.X1.congate)    0.0000               

(X_X5.X1.conmain)    0.0000           (X_X5.X1.control)-1.259E-21           




    VOLTAGE SOURCE CURRENTS
    NAME         CURRENT

    V_V3         5.130E-01
    V_V4         2.029E-01
    V_V5         7.433E-02
    V_V1        -2.939E+01
    V_V2         2.565E-01
    V_V6        -3.023E+01
    X_X1.X1.VIak  -4.033E-11
    X_X1.X1.VdVdt   0.000E+00
    X_X1.X1.VIgf  -2.565E-01
    X_X3.X1.VIak  -4.037E-11
    X_X3.X1.VdVdt   0.000E+00
    X_X3.X1.VIgf  -2.565E-01
    X_X2.X1.VIak  -4.037E-11
    X_X2.X1.VdVdt   0.000E+00
    X_X2.X1.VIgf  -2.565E-01
    X_X4.X1.VIak  -4.037E-11
    X_X4.X1.VdVdt   1.843E-14
    X_X4.X1.VIgf  -2.029E-01
    X_X5.X1.VIak  -4.034E-11
    X_X5.X1.VdVdt   5.684E-14
    X_X5.X1.VIgf  -7.433E-02

    TOTAL POWER DISSIPATION   4.95E+03  WATTS



          JOB CONCLUDED

**** 10/03/19 13:13:03 ***** PSpice 16.6.0 (October 2012) ***** ID# 0 ********

 ** Profile: "SCHEMATIC1-2-4-2-funcionamiento-carga-no-ideal"  [ C:\Users\emile\Desktop\practica 3 garabito\2,4,2-funcionamiento-con-


 ****     JOB STATISTICS SUMMARY


******************************************************************************



  Total job time (using Solver 1)   =        1.39
