
**** 10/03/19 03:17:31 ******* PSpice Lite (April 2011) ******* ID# 10813 ****

 ** Profile: "SCHEMATIC1-fourier"  [ C:\Cadence\SPB_16.5\tools\capture\parte 2,3-pspicefiles\schematic1\fourier.sim ] 


 ****     CIRCUIT DESCRIPTION


******************************************************************************




** Creating circuit file "fourier.cir" 
** WARNING: THIS AUTOMATICALLY GENERATED FILE MAY BE OVERWRITTEN BY SUBSEQUENT SIMULATIONS

*Libraries: 
* Profile Libraries :
* Local Libraries :
* From [PSPICE NETLIST] section of C:\Cadence\SPB_16.5\tools\PSpice\PSpice.ini file:
.lib "nomd.lib" 

*Analysis directives: 
.TRAN  0 40ms 0 40ms 
.PROBE V(alias(*)) I(alias(*)) W(alias(*)) D(alias(*)) NOISE(alias(*)) 
.INC "..\SCHEMATIC1.net" 



**** INCLUDING SCHEMATIC1.net ****
* source PARTE 2,3
V_V1         N00579 0  AC 0
+SIN 0 310 60 0 0 0
L_L1         N00579 N00583  2mH  
L_L2         N00583 N00668  1mH  
L_L3         N00624 N00636  10mH  
R_R1         N00640 N00636  1  
D_D1         N00612 N00668 Dbreak 
D_D2         N00612 N00672 Dbreak 
D_D3         N00612 N00676 Dbreak 
V_V2         N00596 0  AC 0
+SIN 0 310 60 0 0 0
L_L5         N00604 N00672  1mH  
L_L4         N00596 N00604  2mH  
V_V3         N00600 0  AC 0
+SIN 0 310 60 0 0 0
L_L6         N00600 N00608  2mH  
L_L7         N00608 N00676  1mH  
X_X1         N00668 N00985 N00624 2N1595
X_X2         N00672 N01000 N00624 2N1595
X_X3         N00676 N01019 N00624 2N1595
V_V4         N00985 0  
+PULSE 0 1 0 10ns 10ns 100us 20ms
V_V5         N00640 N00612 DC 300 AC 0 0
V_V6         N01000 0  
+PULSE 0 1 0 10ns 10ns 100us 20ms
V_V7         N01019 0  
+PULSE 0 1 0 10ns 10ns 100us 20ms

**** RESUMING fourier.cir ****
.END

**** 10/03/19 03:17:31 ******* PSpice Lite (April 2011) ******* ID# 10813 ****

 ** Profile: "SCHEMATIC1-fourier"  [ C:\Cadence\SPB_16.5\tools\capture\parte 2,3-pspicefiles\schematic1\fourier.sim ] 


 ****     Diode MODEL PARAMETERS


******************************************************************************




               Dbreak          X_X1.X1.Dgk     X_X1.X1.Dseries X_X1.X1.Delay   
          IS   10.000000E-15  100.000000E-18   10.000000E-15    1.000000E-12 
          RS     .1             5                                .01         
         CJO  100.000000E-15   50.000000E-12                    5.000000E-12 


               X_X1.X1.Dkarev  X_X1.X1.Dakfwd  X_X1.X1.Dbreak  X_X2.X1.Dgk     
          IS  100.000000E-12   40.000000E-12   10.000000E-15  100.000000E-18 
          BV                                   55                            
         IBV                                  100.000000E-09                 
          RS     .01                             .5             5            
         CJO    5.000000E-12    5.000000E-12    5.000000E-12   50.000000E-12 


               X_X2.X1.Dseries X_X2.X1.Delay   X_X2.X1.Dkarev  X_X2.X1.Dakfwd  
          IS   10.000000E-15    1.000000E-12  100.000000E-12   40.000000E-12 
          RS                     .01             .01                         
         CJO                    5.000000E-12    5.000000E-12    5.000000E-12 


               X_X2.X1.Dbreak  X_X3.X1.Dgk     X_X3.X1.Dseries X_X3.X1.Delay   
          IS   10.000000E-15  100.000000E-18   10.000000E-15    1.000000E-12 
          BV   55                                                            
         IBV  100.000000E-09                                                 
          RS     .5             5                                .01         
         CJO    5.000000E-12   50.000000E-12                    5.000000E-12 


               X_X3.X1.Dkarev  X_X3.X1.Dakfwd  X_X3.X1.Dbreak  
          IS  100.000000E-12   40.000000E-12   10.000000E-15 
          BV                                   55            
         IBV                                  100.000000E-09 
          RS     .01                             .5          
         CJO    5.000000E-12    5.000000E-12    5.000000E-12 


**** 10/03/19 03:17:31 ******* PSpice Lite (April 2011) ******* ID# 10813 ****

 ** Profile: "SCHEMATIC1-fourier"  [ C:\Cadence\SPB_16.5\tools\capture\parte 2,3-pspicefiles\schematic1\fourier.sim ] 


 ****     Voltage Controlled Switch MODEL PARAMETERS


******************************************************************************




               X_X1.X1.Vswitch X_X2.X1.Vswitch X_X3.X1.Vswitch 
         RON     .4              .4              .4          
        ROFF  454.545500E+03  454.545500E+03  454.545500E+03 
         VON    5               5               5            
        VOFF    1.5             1.5             1.5          


**** 10/03/19 03:17:31 ******* PSpice Lite (April 2011) ******* ID# 10813 ****

 ** Profile: "SCHEMATIC1-fourier"  [ C:\Cadence\SPB_16.5\tools\capture\parte 2,3-pspicefiles\schematic1\fourier.sim ] 


 ****     INITIAL TRANSIENT SOLUTION       TEMPERATURE =   27.000 DEG C


******************************************************************************



 NODE   VOLTAGE     NODE   VOLTAGE     NODE   VOLTAGE     NODE   VOLTAGE


(N00579)    0.0000 (N00583)    0.0000 (N00596)    0.0000 (N00600)    0.0000     

(N00604)-1.291E-18 (N00608)-1.291E-18 (N00612) -300.0000 (N00624) 105.1E-09     

(N00636) 105.1E-09 (N00640) 106.0E-09 (N00668) 6.939E-18 (N00672)-1.291E-18     

(N00676)-1.291E-18 (N00985)    0.0000 (N01000)    0.0000 (N01019)    0.0000     

(X_X1.X1.Itot)    0.0000              (X_X1.X1.prod)    0.0000                  

(X_X2.X1.Itot)    0.0000              (X_X2.X1.prod)    0.0000                  

(X_X3.X1.Itot)    0.0000              (X_X3.X1.prod)    0.0000                  

(X_X1.X1.dlay1) 20.80E-24             (X_X1.X1.dlay2)-91.41E-24                 

(X_X1.X1.dvdt0)    0.0000             (X_X1.X1.dvdt1) 105.1E-09                 

(X_X1.X1.dvdt2) 105.1E-09             (X_X1.X1.gate1) 7.505E-09                 

(X_X1.X1.gate2) 105.1E-09             (X_X1.X1.gate4)    0.0000                 

(X_X2.X1.dlay1) 20.80E-24             (X_X2.X1.dlay2)-91.41E-24                 

(X_X2.X1.dvdt0)    0.0000             (X_X2.X1.dvdt1) 105.1E-09                 

(X_X2.X1.dvdt2) 105.1E-09             (X_X2.X1.gate1) 7.505E-09                 

(X_X2.X1.gate2) 105.1E-09             (X_X2.X1.gate4)    0.0000                 

(X_X3.X1.dlay1) 20.84E-24             (X_X3.X1.dlay2)-91.60E-24                 

(X_X3.X1.dvdt0)    0.0000             (X_X3.X1.dvdt1) 105.1E-09                 

(X_X3.X1.dvdt2) 105.1E-09             (X_X3.X1.gate1) 7.505E-09                 

(X_X3.X1.gate2) 105.1E-09             (X_X3.X1.gate4)    0.0000                 

(X_X1.X1.anode0) 258.0E-12            (X_X1.X1.anode2) 105.1E-09                

(X_X1.X1.break1) 52.54E-09            (X_X1.X1.contot)    0.0000                

(X_X2.X1.anode0) 258.0E-12            (X_X2.X1.anode2) 105.1E-09                

(X_X2.X1.break1) 52.54E-09            (X_X2.X1.contot)    0.0000                

(X_X3.X1.anode0) 258.0E-12            (X_X3.X1.anode2) 105.1E-09                

(X_X3.X1.break1) 52.54E-09            (X_X3.X1.contot)    0.0000                

(X_X1.X1.condvdt)    0.0000           (X_X1.X1.congate)    0.0000               

(X_X1.X1.conmain)    0.0000           (X_X1.X1.control) 4.516E-18               

(X_X2.X1.condvdt)    0.0000           (X_X2.X1.congate)    0.0000               

(X_X2.X1.conmain)    0.0000           (X_X2.X1.control) 4.516E-18               

(X_X3.X1.condvdt)    0.0000           (X_X3.X1.congate)    0.0000               

(X_X3.X1.conmain)    0.0000           (X_X3.X1.control) 4.521E-18           




    VOLTAGE SOURCE CURRENTS
    NAME         CURRENT

    V_V1        -3.000E-10
    V_V2        -3.000E-10
    V_V3        -3.000E-10
    V_V4         3.002E-10
    V_V5        -9.006E-10
    V_V6         3.002E-10
    V_V7         3.002E-10
    X_X1.X1.VIak  -1.622E-16
    X_X1.X1.VdVdt  -3.749E-26
    X_X1.X1.VIgf  -3.002E-10
    X_X2.X1.VIak  -1.622E-16
    X_X2.X1.VdVdt   0.000E+00
    X_X2.X1.VIgf  -3.002E-10
    X_X3.X1.VIak  -1.622E-16
    X_X3.X1.VdVdt   0.000E+00
    X_X3.X1.VIgf  -3.002E-10

    TOTAL POWER DISSIPATION   2.70E-07  WATTS



          JOB CONCLUDED

**** 10/03/19 03:17:31 ******* PSpice Lite (April 2011) ******* ID# 10813 ****

 ** Profile: "SCHEMATIC1-fourier"  [ C:\Cadence\SPB_16.5\tools\capture\parte 2,3-pspicefiles\schematic1\fourier.sim ] 


 ****     JOB STATISTICS SUMMARY


******************************************************************************



  Total job time (using Solver 1)   =        3.32
